(1705284000.000000) can0 180#0000004B08000000
(1705284000.000000) can0 124#0000000041460000
(1705284000.000000) can0 123#0010000000000000
(1705284000.000000) can0 151#B8880000AAC00000
(1705284000.000000) can0 150#0000000000000000
(1705284000.000000) can0 152#443E410000000000
(1705284000.020000) can0 180#0000004B08000001
(1705284000.040000) can0 180#0000004B08000002
(1705284000.060000) can0 180#0000004B08000003
(1705284000.080000) can0 180#0000004B08000004
(1705284000.100000) can0 180#0000004B08000005
(1705284000.100000) can0 124#0000000041460001
(1705284000.100000) can0 151#B8880000AAC00001
(1705284000.120000) can0 180#0000004B08000006
(1705284000.140000) can0 180#0000004B08000007
(1705284000.160000) can0 180#0000004B08000008
(1705284000.180000) can0 180#0000004B08000009
(1705284000.200000) can0 180#0000004B0800000A
(1705284000.200000) can0 124#0000000041460002
(1705284000.200000) can0 151#B8880000AAC00002
(1705284000.220000) can0 180#0000004B0800000B
(1705284000.240000) can0 180#0000004B0800000C
(1705284000.260000) can0 180#0000004B0800000D
(1705284000.280000) can0 180#0000004B0800000E
(1705284000.300000) can0 180#0000004B0800000F
(1705284000.300000) can0 124#0000000041460003
(1705284000.300000) can0 151#B8880000AAC00003
(1705284000.320000) can0 180#0000004B08000010
(1705284000.340000) can0 180#0000004B08000011
(1705284000.360000) can0 180#0000004B08000012
(1705284000.380000) can0 180#0000004B08000013
(1705284000.400000) can0 180#0000004B08000014
(1705284000.400000) can0 124#0000000041460004
(1705284000.400000) can0 151#B8880000AAC00004
(1705284000.420000) can0 180#0000004B08000015
(1705284000.440000) can0 180#0000004B08000016
(1705284000.460000) can0 180#0000004B08000017
(1705284000.480000) can0 180#0000004B08000018
(1705284000.500000) can0 180#0000004B08000019
(1705284000.500000) can0 124#0000000041460005
(1705284000.500000) can0 151#B8880000AAC00005
(1705284000.500000) can0 152#443E410000000000
(1705284000.520000) can0 180#0000004B0800001A
(1705284000.540000) can0 180#0000004B0800001B
(1705284000.560000) can0 180#0000004B0800001C
(1705284000.580000) can0 180#0000004B0800001D
(1705284000.600000) can0 180#0000004B0800001E
(1705284000.600000) can0 124#0000000041460006
(1705284000.600000) can0 151#B8880000AAC00006
(1705284000.620000) can0 180#0000004B0800001F
(1705284000.640000) can0 180#0000004B08000020
(1705284000.660000) can0 180#0000004B08000021
(1705284000.680000) can0 180#0000004B08000022
(1705284000.700000) can0 180#0000004B08000023
(1705284000.700000) can0 124#0000000041460007
(1705284000.700000) can0 151#B8880000AAC00007
(1705284000.720000) can0 180#0000004B08000024
(1705284000.740000) can0 180#0000004B08000025
(1705284000.760000) can0 180#0000004B08000026
(1705284000.780000) can0 180#0000004B08000027
(1705284000.800000) can0 180#0000004B08000028
(1705284000.800000) can0 124#0000000041460008
(1705284000.800000) can0 151#B8880000AAC00008
(1705284000.820000) can0 180#0000004B08000029
(1705284000.840000) can0 180#0000004B0800002A
(1705284000.860000) can0 180#0000004B0800002B
(1705284000.880000) can0 180#0000004B0800002C
(1705284000.900000) can0 180#0000004B0800002D
(1705284000.900000) can0 124#0000000041460009
(1705284000.900000) can0 151#B8880000AAC00009
(1705284000.920000) can0 180#0000004B0800002E
(1705284000.940000) can0 180#0000004B0800002F
(1705284000.960000) can0 180#0000004B08000030
(1705284000.980000) can0 180#0000004B08000031
(1705284001.000000) can0 180#000019190B000032
(1705284001.000000) can0 124#000000004146000A
(1705284001.000000) can0 123#0110000000000000
(1705284001.000000) can0 151#B8880000AAC0000A
(1705284001.000000) can0 150#0100000000000000
(1705284001.000000) can0 152#443E410000000000
(1705284001.020000) can0 180#000019190B000033
(1705284001.040000) can0 180#000019190B000034
(1705284001.060000) can0 180#000019190B000035
(1705284001.080000) can0 180#000019190B000036
(1705284001.100000) can0 180#000019190B000037
(1705284001.100000) can0 124#000000004146000B
(1705284001.100000) can0 151#B8880000AAC0000B
(1705284001.120000) can0 180#000019190B000038
(1705284001.140000) can0 180#000019190B000039
(1705284001.160000) can0 180#000019190B00003A
(1705284001.180000) can0 180#000019190B00003B
(1705284001.200000) can0 180#000019190B00003C
(1705284001.200000) can0 124#000000004146000C
(1705284001.200000) can0 151#B8880000AAC0000C
(1705284001.220000) can0 180#000019190B00003D
(1705284001.240000) can0 180#000019190B00003E
(1705284001.260000) can0 180#000019190B00003F
(1705284001.280000) can0 180#000019190B000040
(1705284001.300000) can0 180#000019190B000041
(1705284001.300000) can0 124#000000004146000D
(1705284001.300000) can0 151#B8880000AAC0000D
(1705284001.320000) can0 180#000019190B000042
(1705284001.340000) can0 180#000019190B000043
(1705284001.360000) can0 180#000019190B000044
(1705284001.380000) can0 180#000019190B000045
(1705284001.400000) can0 180#000019190B000046
(1705284001.400000) can0 124#000000004146000E
(1705284001.400000) can0 151#B8880000AAC0000E
(1705284001.420000) can0 180#000019190B000047
(1705284001.440000) can0 180#000019190B000048
(1705284001.460000) can0 180#000019190B000049
(1705284001.480000) can0 180#000019190B00004A
(1705284001.500000) can0 180#000019190B00004B
(1705284001.500000) can0 124#000000004146000F
(1705284001.500000) can0 151#B8880000AAC0000F
(1705284001.500000) can0 152#443E410000000000
(1705284001.520000) can0 180#000019190B00004C
(1705284001.540000) can0 180#000019190B00004D
(1705284001.560000) can0 180#000019190B00004E
(1705284001.580000) can0 180#000019190B00004F
(1705284001.600000) can0 180#000019190B000050
(1705284001.600000) can0 124#0000000041460010
(1705284001.600000) can0 151#B8880000AAC00010
(1705284001.620000) can0 180#000019190B000051
(1705284001.640000) can0 180#000019190B000052
(1705284001.660000) can0 180#000019190B000053
(1705284001.680000) can0 180#000019190B000054
(1705284001.700000) can0 180#000019190B000055
(1705284001.700000) can0 124#0000000041460011
(1705284001.700000) can0 151#B8880000AAC00011
(1705284001.720000) can0 180#000019190B000056
(1705284001.740000) can0 180#000019190B000057
(1705284001.760000) can0 180#000019190B000058
(1705284001.780000) can0 180#000019190B000059
(1705284001.800000) can0 180#000019190B00005A
(1705284001.800000) can0 124#0000000041460012
(1705284001.800000) can0 151#B8880000AAC00012
(1705284001.820000) can0 180#000019190B00005B
(1705284001.840000) can0 180#000019190B00005C
(1705284001.860000) can0 180#000019190B00005D
(1705284001.880000) can0 180#000019190B00005E
(1705284001.900000) can0 180#000019190B00005F
(1705284001.900000) can0 124#0000000041460013
(1705284001.900000) can0 151#B8880000AAC00013
(1705284001.920000) can0 180#000019190B000060
(1705284001.940000) can0 180#000019190B000061
(1705284001.960000) can0 180#000019190B000062
(1705284001.980000) can0 180#000019190B000063
(1705284002.000000) can0 180#58024B000B000064
(1705284002.000000) can0 124#0500F40141460014
(1705284002.000000) can0 123#0211000000000000
(1705284002.000000) can0 151#B688E0FCA9C00014
(1705284002.000000) can0 150#0202000000000000
(1705284002.000000) can0 152#443E410000000000
(1705284002.020000) can0 180#58024B000B000065
(1705284002.040000) can0 180#58024B000B000066
(1705284002.060000) can0 180#58024B000B000067
(1705284002.080000) can0 180#58024B000B000068
(1705284002.100000) can0 180#58024B000B000069
(1705284002.100000) can0 124#1E00F40142460015
(1705284002.100000) can0 151#B488E0FCA9C00015
(1705284002.120000) can0 180#58024B000B00006A
(1705284002.140000) can0 180#58024B000B00006B
(1705284002.160000) can0 180#58024B000B00006C
(1705284002.180000) can0 180#58024B000B00006D
(1705284002.200000) can0 180#58024B000B00006E
(1705284002.200000) can0 124#3700F40142460016
(1705284002.200000) can0 151#B288E0FCA9C00016
(1705284002.220000) can0 180#58024B000B00006F
(1705284002.240000) can0 180#58024B000B000070
(1705284002.260000) can0 180#58024B000B000071
(1705284002.280000) can0 180#58024B000B000072
(1705284002.300000) can0 180#58024B000B000073
(1705284002.300000) can0 124#5000F40143470017
(1705284002.300000) can0 151#B088E0FCA9C00017
(1705284002.320000) can0 180#58024B000B000074
(1705284002.340000) can0 180#58024B000B000075
(1705284002.360000) can0 180#58024B000B000076
(1705284002.380000) can0 180#58024B000B000077
(1705284002.400000) can0 180#58024B000B000078
(1705284002.400000) can0 124#6900F40143470018
(1705284002.400000) can0 151#AE88E0FCA9C00018
(1705284002.420000) can0 180#58024B000B000079
(1705284002.440000) can0 180#58024B000B00007A
(1705284002.460000) can0 180#58024B000B00007B
(1705284002.480000) can0 180#58024B000B00007C
(1705284002.500000) can0 180#58024B000B00007D
(1705284002.500000) can0 124#8200F40144470019
(1705284002.500000) can0 151#AC88E0FCA9C00019
(1705284002.500000) can0 152#453E410000000000
(1705284002.520000) can0 180#58024B000B00007E
(1705284002.540000) can0 180#58024B000B00007F
(1705284002.560000) can0 180#58024B000B000080
(1705284002.580000) can0 180#58024B000B000081
(1705284002.600000) can0 180#58024B000B000082
(1705284002.600000) can0 124#9B00F4014448001A
(1705284002.600000) can0 151#AA88E0FCA9C0001A
(1705284002.620000) can0 180#58024B000B000083
(1705284002.640000) can0 180#58024B000B000084
(1705284002.660000) can0 180#58024B000B000085
(1705284002.680000) can0 180#58024B000B000086
(1705284002.700000) can0 180#58024B000B000087
(1705284002.700000) can0 124#B400F4014548001B
(1705284002.700000) can0 151#A888E0FCA9C0001B
(1705284002.720000) can0 180#58024B000B000088
(1705284002.740000) can0 180#58024B000B000089
(1705284002.760000) can0 180#58024B000B00008A
(1705284002.780000) can0 180#58024B000B00008B
(1705284002.800000) can0 180#58024B000B00008C
(1705284002.800000) can0 124#CD00F4014548001C
(1705284002.800000) can0 151#A688E0FCA9C0001C
(1705284002.820000) can0 180#58024B000B00008D
(1705284002.840000) can0 180#58024B000B00008E
(1705284002.860000) can0 180#58024B000B00008F
(1705284002.880000) can0 180#58024B000B000090
(1705284002.900000) can0 180#58024B000B000091
(1705284002.900000) can0 124#E600F4014649001D
(1705284002.900000) can0 151#A488E0FCA9C0001D
(1705284002.920000) can0 180#58024B000B000092
(1705284002.940000) can0 180#58024B000B000093
(1705284002.960000) can0 180#58024B000B000094
(1705284002.980000) can0 180#58024B000B000095
(1705284003.000000) can0 180#58024B000B000096
(1705284003.000000) can0 124#FF00F4014649001E
(1705284003.000000) can0 123#0311000000000000
(1705284003.000000) can0 151#A288E0FCA9C0001E
(1705284003.000000) can0 150#0302000000000000
(1705284003.000000) can0 152#463E420000000000
(1705284003.020000) can0 180#58024B000B000097
(1705284003.040000) can0 180#58024B000B000098
(1705284003.060000) can0 180#58024B000B000099
(1705284003.080000) can0 180#58024B000B00009A
(1705284003.100000) can0 180#58024B000B00009B
(1705284003.100000) can0 124#1801F4014749001F
(1705284003.100000) can0 151#A088E0FCA9C0001F
(1705284003.120000) can0 180#58024B000B00009C
(1705284003.140000) can0 180#58024B000B00009D
(1705284003.160000) can0 180#58024B000B00009E
(1705284003.180000) can0 180#58024B000B00009F
(1705284003.200000) can0 180#58024B000B0000A0
(1705284003.200000) can0 124#3101F40147490020
(1705284003.200000) can0 151#9E88E0FCA9C00020
(1705284003.220000) can0 180#58024B000B0000A1
(1705284003.240000) can0 180#58024B000B0000A2
(1705284003.260000) can0 180#58024B000B0000A3
(1705284003.280000) can0 180#58024B000B0000A4
(1705284003.300000) can0 180#58024B000B0000A5
(1705284003.300000) can0 124#4A01F401484A0021
(1705284003.300000) can0 151#9C88E0FCA9C00021
(1705284003.320000) can0 180#58024B000B0000A6
(1705284003.340000) can0 180#58024B000B0000A7
(1705284003.360000) can0 180#58024B000B0000A8
(1705284003.380000) can0 180#58024B000B0000A9
(1705284003.400000) can0 180#58024B000B0000AA
(1705284003.400000) can0 124#6301F401484A0022
(1705284003.400000) can0 151#9A88E0FCA9C00022
(1705284003.420000) can0 180#58024B000B0000AB
(1705284003.440000) can0 180#58024B000B0000AC
(1705284003.460000) can0 180#58024B000B0000AD
(1705284003.480000) can0 180#58024B000B0000AE
(1705284003.500000) can0 180#58024B000B0000AF
(1705284003.500000) can0 124#7C01F401494A0023
(1705284003.500000) can0 151#9888E0FCA9C00023
(1705284003.500000) can0 152#473E420000000000
(1705284003.520000) can0 180#58024B000B0000B0
(1705284003.540000) can0 180#58024B000B0000B1
(1705284003.560000) can0 180#58024B000B0000B2
(1705284003.580000) can0 180#58024B000B0000B3
(1705284003.600000) can0 180#58024B000B0000B4
(1705284003.600000) can0 124#9501F401494B0024
(1705284003.600000) can0 151#9688E0FCA9C00024
(1705284003.620000) can0 180#58024B000B0000B5
(1705284003.640000) can0 180#58024B000B0000B6
(1705284003.660000) can0 180#58024B000B0000B7
(1705284003.680000) can0 180#58024B000B0000B8
(1705284003.700000) can0 180#58024B000B0000B9
(1705284003.700000) can0 124#AE01F4014A4B0025
(1705284003.700000) can0 151#9488E0FCA9C00025
(1705284003.720000) can0 180#58024B000B0000BA
(1705284003.740000) can0 180#58024B000B0000BB
(1705284003.760000) can0 180#58024B000B0000BC
(1705284003.780000) can0 180#58024B000B0000BD
(1705284003.800000) can0 180#58024B000B0000BE
(1705284003.800000) can0 124#C701F4014A4B0026
(1705284003.800000) can0 151#9288E0FCA9C00026
(1705284003.820000) can0 180#58024B000B0000BF
(1705284003.840000) can0 180#58024B000B0000C0
(1705284003.860000) can0 180#58024B000B0000C1
(1705284003.880000) can0 180#58024B000B0000C2
(1705284003.900000) can0 180#58024B000B0000C3
(1705284003.900000) can0 124#E001F4014B4B0027
(1705284003.900000) can0 151#9088E0FCA9C00027
(1705284003.920000) can0 180#58024B000B0000C4
(1705284003.940000) can0 180#58024B000B0000C5
(1705284003.960000) can0 180#58024B000B0000C6
(1705284003.980000) can0 180#58024B000B0000C7
(1705284004.000000) can0 180#58024B000B0000C8
(1705284004.000000) can0 124#F901F4014B4C0028
(1705284004.000000) can0 123#0411000000000000
(1705284004.000000) can0 151#8E88E0FCA9C00028
(1705284004.000000) can0 150#0402000000000000
(1705284004.000000) can0 152#483E430000000000
(1705284004.020000) can0 180#58024B000B0000C9
(1705284004.040000) can0 180#58024B000B0000CA
(1705284004.060000) can0 180#58024B000B0000CB
(1705284004.080000) can0 180#58024B000B0000CC
(1705284004.100000) can0 180#58024B000B0000CD
(1705284004.100000) can0 124#1202F4014C4C0029
(1705284004.100000) can0 151#8C88E0FCA9C00029
(1705284004.120000) can0 180#58024B000B0000CE
(1705284004.140000) can0 180#58024B000B0000CF
(1705284004.160000) can0 180#58024B000B0000D0
(1705284004.180000) can0 180#58024B000B0000D1
(1705284004.200000) can0 180#58024B000B0000D2
(1705284004.200000) can0 124#2B02F4014C4C002A
(1705284004.200000) can0 151#8A88E0FCA9C0002A
(1705284004.220000) can0 180#58024B000B0000D3
(1705284004.240000) can0 180#58024B000B0000D4
(1705284004.260000) can0 180#58024B000B0000D5
(1705284004.280000) can0 180#58024B000B0000D6
(1705284004.300000) can0 180#58024B000B0000D7
(1705284004.300000) can0 124#4402F4014D4D002B
(1705284004.300000) can0 151#8888E0FCA9C0002B
(1705284004.320000) can0 180#58024B000B0000D8
(1705284004.340000) can0 180#58024B000B0000D9
(1705284004.360000) can0 180#58024B000B0000DA
(1705284004.380000) can0 180#58024B000B0000DB
(1705284004.400000) can0 180#58024B000B0000DC
(1705284004.400000) can0 124#5D02F4014D4D002C
(1705284004.400000) can0 151#8688E0FCA9C0002C
(1705284004.420000) can0 180#58024B000B0000DD
(1705284004.440000) can0 180#58024B000B0000DE
(1705284004.460000) can0 180#58024B000B0000DF
(1705284004.480000) can0 180#58024B000B0000E0
(1705284004.500000) can0 180#58024B000B0000E1
(1705284004.500000) can0 124#7602F4014E4D002D
(1705284004.500000) can0 151#8488E0FCA9C0002D
(1705284004.500000) can0 152#493E430000000000
(1705284004.520000) can0 180#58024B000B0000E2
(1705284004.540000) can0 180#58024B000B0000E3
(1705284004.560000) can0 180#58024B000B0000E4
(1705284004.580000) can0 180#58024B000B0000E5
(1705284004.600000) can0 180#58024B000B0000E6
(1705284004.600000) can0 124#8F02F4014E4E002E
(1705284004.600000) can0 151#8288E0FCA9C0002E
(1705284004.620000) can0 180#58024B000B0000E7
(1705284004.640000) can0 180#58024B000B0000E8
(1705284004.660000) can0 180#58024B000B0000E9
(1705284004.680000) can0 180#58024B000B0000EA
(1705284004.700000) can0 180#58024B000B0000EB
(1705284004.700000) can0 124#A802F4014F4E002F
(1705284004.700000) can0 151#8088E0FCA9C0002F
(1705284004.720000) can0 180#58024B000B0000EC
(1705284004.740000) can0 180#58024B000B0000ED
(1705284004.760000) can0 180#58024B000B0000EE
(1705284004.780000) can0 180#58024B000B0000EF
(1705284004.800000) can0 180#58024B000B0000F0
(1705284004.800000) can0 124#C102F4014F4E0030
(1705284004.800000) can0 151#7E88E0FCA9C00030
(1705284004.820000) can0 180#58024B000B0000F1
(1705284004.840000) can0 180#58024B000B0000F2
(1705284004.860000) can0 180#58024B000B0000F3
(1705284004.880000) can0 180#58024B000B0000F4
(1705284004.900000) can0 180#58024B000B0000F5
(1705284004.900000) can0 124#DA02F401504E0031
(1705284004.900000) can0 151#7C88E0FCA9C00031
(1705284004.920000) can0 180#58024B000B0000F6
(1705284004.940000) can0 180#58024B000B0000F7
(1705284004.960000) can0 180#58024B000B0000F8
(1705284004.980000) can0 180#58024B000B0000F9
(1705284005.000000) can0 180#DC057D000B0000FA
(1705284005.000000) can0 124#F102B004504F0032
(1705284005.000000) can0 123#0511000000000000
(1705284005.000000) can0 151#778824FAA9C00033
(1705284005.000000) can0 150#0502000000000000
(1705284005.000000) can0 152#503E470000000000
(1705284005.020000) can0 180#DC057D000B0000FB
(1705284005.040000) can0 180#DC057D000B0000FC
(1705284005.060000) can0 180#DC057D000B0000FD
(1705284005.080000) can0 180#DC057D000B0000FE
(1705284005.100000) can0 180#DC057D000B0000FF
(1705284005.100000) can0 124#0003B004504F0033
(1705284005.100000) can0 151#728824FAA9C00034
(1705284005.120000) can0 180#DC057D000B000000
(1705284005.140000) can0 180#DC057D000B000001
(1705284005.160000) can0 180#DC057D000B000002
(1705284005.180000) can0 180#DC057D000B000003
(1705284005.200000) can0 180#DC057D000B000004
(1705284005.200000) can0 124#0F03B004504F0034
(1705284005.200000) can0 151#6D8824FAA9C00035
(1705284005.220000) can0 180#DC057D000B000005
(1705284005.240000) can0 180#DC057D000B000006
(1705284005.260000) can0 180#DC057D000B000007
(1705284005.280000) can0 180#DC057D000B000008
(1705284005.300000) can0 180#DC057D000B000009
(1705284005.300000) can0 124#1E03B004514F0035
(1705284005.300000) can0 151#688824FAA9C00036
(1705284005.320000) can0 180#DC057D000B00000A
(1705284005.340000) can0 180#DC057D000B00000B
(1705284005.360000) can0 180#DC057D000B00000C
(1705284005.380000) can0 180#DC057D000B00000D
(1705284005.400000) can0 180#DC057D000B00000E
(1705284005.400000) can0 124#2D03B004514F0036
(1705284005.400000) can0 151#638824FAA9C00037
(1705284005.420000) can0 180#DC057D000B00000F
(1705284005.440000) can0 180#DC057D000B000010
(1705284005.460000) can0 180#DC057D000B000011
(1705284005.480000) can0 180#DC057D000B000012
(1705284005.500000) can0 180#DC057D000B000013
(1705284005.500000) can0 124#3C03B00451500037
(1705284005.500000) can0 151#5E8824FAA9C00038
(1705284005.500000) can0 152#513E470000000000
(1705284005.520000) can0 180#DC057D000B000014
(1705284005.540000) can0 180#DC057D000B000015
(1705284005.560000) can0 180#DC057D000B000016
(1705284005.580000) can0 180#DC057D000B000017
(1705284005.600000) can0 180#DC057D000B000018
(1705284005.600000) can0 124#4B03B00452500038
(1705284005.600000) can0 151#598824FAA9C00039
(1705284005.620000) can0 180#DC057D000B000019
(1705284005.640000) can0 180#DC057D000B00001A
(1705284005.660000) can0 180#DC057D000B00001B
(1705284005.680000) can0 180#DC057D000B00001C
(1705284005.700000) can0 180#DC057D000B00001D
(1705284005.700000) can0 124#5A03B00452500039
(1705284005.700000) can0 151#548824FAA9C0003A
(1705284005.720000) can0 180#DC057D000B00001E
(1705284005.740000) can0 180#DC057D000B00001F
(1705284005.760000) can0 180#DC057D000B000020
(1705284005.780000) can0 180#DC057D000B000021
(1705284005.800000) can0 180#DC057D000B000022
(1705284005.800000) can0 124#6903B0045250003A
(1705284005.800000) can0 151#4F8824FAA9C0003B
(1705284005.820000) can0 180#DC057D000B000023
(1705284005.840000) can0 180#DC057D000B000024
(1705284005.860000) can0 180#DC057D000B000025
(1705284005.880000) can0 180#DC057D000B000026
(1705284005.900000) can0 180#DC057D000B000027
(1705284005.900000) can0 124#7803B0045250003B
(1705284005.900000) can0 151#4A8824FAA8C0003C
(1705284005.920000) can0 180#DC057D000B000028
(1705284005.940000) can0 180#DC057D000B000029
(1705284005.960000) can0 180#DC057D000B00002A
(1705284005.980000) can0 180#DC057D000B00002B
(1705284006.000000) can0 180#DC057D000B00002C
(1705284006.000000) can0 124#8703B0048C22003C
(1705284006.000000) can0 123#0611000000000000
(1705284006.000000) can0 151#458824FAA8C0003D
(1705284006.000000) can0 150#0602000000000000
(1705284006.000000) can0 152#8C3E650000000000
(1705284006.000000) can0 200#0102030405060708
(1705284006.020000) can0 180#DC057D000B00002D
(1705284006.040000) can0 180#DC057D000B00002E
(1705284006.060000) can0 180#DC057D000B00002F
(1705284006.080000) can0 180#DC057D000B000030
(1705284006.100000) can0 180#DC057D000B000031
(1705284006.100000) can0 124#9603B0048287003D
(1705284006.100000) can0 151#408824FAA8C0003E
(1705284006.120000) can0 180#DC057D000B000032
(1705284006.140000) can0 180#DC057D000B000033
(1705284006.160000) can0 180#DC057D000B000034
(1705284006.180000) can0 180#DC057D000B000035
(1705284006.200000) can0 180#DC057D000B000036
(1705284006.200000) can0 124#A503B0048287003E
(1705284006.200000) can0 151#3B8824FAA8C0003F
(1705284006.220000) can0 180#DC057D000B000037
(1705284006.240000) can0 180#DC057D000B000038
(1705284006.260000) can0 180#DC057D000B000039
(1705284006.280000) can0 180#DC057D000B00003A
(1705284006.300000) can0 180#DC057D000B00003B
(1705284006.300000) can0 124#B403B0048287003F
(1705284006.300000) can0 151#368824FAA8C00040
(1705284006.320000) can0 180#DC057D000B00003C
(1705284006.340000) can0 180#DC057D000B00003D
(1705284006.360000) can0 180#DC057D000B00003E
(1705284006.380000) can0 180#DC057D000B00003F
(1705284006.400000) can0 180#DC057D000B000040
(1705284006.400000) can0 124#C303B00482870040
(1705284006.400000) can0 151#318824FAA8C00041
(1705284006.420000) can0 180#DC057D000B000041
(1705284006.440000) can0 180#DC057D000B000042
(1705284006.460000) can0 180#DC057D000B000043
(1705284006.480000) can0 180#DC057D000B000044
(1705284006.500000) can0 180#DC057D000B000045
(1705284006.500000) can0 124#D203B00482870041
(1705284006.500000) can0 151#2C8824FAA8C00042
(1705284006.500000) can0 152#823E600000000000
(1705284006.520000) can0 180#DC057D000B000046
(1705284006.540000) can0 180#DC057D000B000047
(1705284006.560000) can0 180#DC057D000B000048
(1705284006.580000) can0 180#DC057D000B000049
(1705284006.600000) can0 180#DC057D000B00004A
(1705284006.600000) can0 124#E103B00482870042
(1705284006.600000) can0 151#278824FAA8C00043
(1705284006.620000) can0 180#DC057D000B00004B
(1705284006.640000) can0 180#DC057D000B00004C
(1705284006.660000) can0 180#DC057D000B00004D
(1705284006.680000) can0 180#DC057D000B00004E
(1705284006.700000) can0 180#DC057D000B00004F
(1705284006.700000) can0 124#F003B00482870043
(1705284006.700000) can0 151#228824FAA8C00044
(1705284006.720000) can0 180#DC057D000B000050
(1705284006.740000) can0 180#DC057D000B000051
(1705284006.760000) can0 180#DC057D000B000052
(1705284006.780000) can0 180#DC057D000B000053
(1705284006.800000) can0 180#DC057D000B000054
(1705284006.800000) can0 124#FF03B00482870044
(1705284006.800000) can0 151#1D8824FAA8C00045
(1705284006.820000) can0 180#DC057D000B000055
(1705284006.840000) can0 180#DC057D000B000056
(1705284006.860000) can0 180#DC057D000B000057
(1705284006.880000) can0 180#DC057D000B000058
(1705284006.900000) can0 180#DC057D000B000059
(1705284006.900000) can0 124#0E04B00482870045
(1705284006.900000) can0 151#188824FAA8C00046
(1705284006.920000) can0 180#DC057D000B00005A
(1705284006.940000) can0 180#DC057D000B00005B
(1705284006.960000) can0 180#DC057D000B00005C
(1705284006.980000) can0 180#DC057D000B00005D
(1705284007.000000) can0 180#DC057D000B00005E
(1705284007.000000) can0 124#1D04B00482870046
(1705284007.000000) can0 151#138824FAA8C00047
(1705284007.000000) can0 150#0702000000000000
(1705284007.000000) can0 152#823E600000000000
(1705284007.020000) can0 180#DC057D000B00005F
(1705284007.040000) can0 180#DC057D000B000060
(1705284007.060000) can0 180#DC057D000B000061
(1705284007.080000) can0 180#DC057D000B000062
(1705284007.100000) can0 180#DC057D000B000063
(1705284007.100000) can0 124#2C04B00482870047
(1705284007.100000) can0 151#0E8824FAA8C00048
(1705284007.120000) can0 180#DC057D000B000064
(1705284007.140000) can0 180#DC057D000B000065
(1705284007.160000) can0 180#DC057D000B000066
(1705284007.180000) can0 180#DC057D000B000067
(1705284007.200000) can0 180#DC057D000B000068
(1705284007.200000) can0 124#3B04B00482870048
(1705284007.200000) can0 151#098824FAA8C00049
(1705284007.220000) can0 180#DC057D000B000069
(1705284007.240000) can0 180#DC057D000B00006A
(1705284007.260000) can0 180#DC057D000B00006B
(1705284007.280000) can0 180#DC057D000B00006C
(1705284007.300000) can0 180#DC057D000B00006D
(1705284007.300000) can0 124#4A04B00482870049
(1705284007.300000) can0 151#048824FAA8C0004A
(1705284007.320000) can0 180#DC057D000B00006E
(1705284007.340000) can0 180#DC057D000B00006F
(1705284007.360000) can0 180#DC057D000B000070
(1705284007.380000) can0 180#DC057D000B000071
(1705284007.400000) can0 180#DC057D000B000072
(1705284007.400000) can0 124#5904B0048287004A
(1705284007.400000) can0 151#FF8724FAA8C0004B
(1705284007.420000) can0 180#DC057D000B000073
(1705284007.440000) can0 180#DC057D000B000074
(1705284007.460000) can0 180#DC057D000B000075
(1705284007.480000) can0 180#DC057D000B000076
(1705284007.500000) can0 180#DC057D000B000077
(1705284007.500000) can0 124#6804B0048287004B
(1705284007.500000) can0 151#FA8724FAA8C0004C
(1705284007.500000) can0 152#823E600000000000
(1705284007.520000) can0 180#DC057D000B000078
(1705284007.540000) can0 180#DC057D000B000079
(1705284007.560000) can0 180#DC057D000B00007A
(1705284007.580000) can0 180#DC057D000B00007B
(1705284007.600000) can0 180#DC057D000B00007C
(1705284007.600000) can0 124#7704B0048287004C
(1705284007.600000) can0 151#F58724FAA8C0004D
(1705284007.620000) can0 180#DC057D000B00007D
(1705284007.640000) can0 180#DC057D000B00007E
(1705284007.660000) can0 180#DC057D000B00007F
(1705284007.680000) can0 180#DC057D000B000080
(1705284007.700000) can0 180#DC057D000B000081
(1705284007.700000) can0 124#8604B0048287004D
(1705284007.700000) can0 151#F08724FAA8C0004E
(1705284007.720000) can0 180#DC057D000B000082
(1705284007.740000) can0 180#DC057D000B000083
(1705284007.760000) can0 180#DC057D000B000084
(1705284007.780000) can0 180#DC057D000B000085
(1705284007.800000) can0 180#DC057D000B000086
(1705284007.800000) can0 124#9504B0048287004E
(1705284007.800000) can0 151#EB8724FAA8C0004F
(1705284007.820000) can0 180#DC057D000B000087
(1705284007.840000) can0 180#DC057D000B000088
(1705284007.860000) can0 180#DC057D000B000089
(1705284007.880000) can0 180#DC057D000B00008A
(1705284007.900000) can0 180#DC057D000B00008B
(1705284007.900000) can0 124#A404B0048287004F
(1705284007.900000) can0 151#E68724FAA8C00050
(1705284007.920000) can0 180#DC057D000B00008C
(1705284007.940000) can0 180#DC057D000B00008D
(1705284007.960000) can0 180#DC057D000B00008E
(1705284007.980000) can0 180#DC057D000B00008F
(1705284008.000000) can0 180#DC057D000B000090
(1705284008.000000) can0 124#B304B00482870050
(1705284008.000000) can0 151#E18724FAA8C00051
(1705284008.000000) can0 150#0802000000000000
(1705284008.000000) can0 152#823E600000000000
(1705284008.000000) can0 200#0102030405060708
(1705284008.020000) can0 180#DC057D000B000091
(1705284008.040000) can0 180#DC057D000B000092
(1705284008.060000) can0 180#DC057D000B000093
(1705284008.080000) can0 180#DC057D000B000094
(1705284008.100000) can0 180#DC057D000B000095
(1705284008.100000) can0 124#C204B00482870051
(1705284008.100000) can0 151#DC8724FAA8C00052
(1705284008.120000) can0 180#DC057D000B000096
(1705284008.140000) can0 180#DC057D000B000097
(1705284008.160000) can0 180#DC057D000B000098
(1705284008.180000) can0 180#DC057D000B000099
(1705284008.200000) can0 180#DC057D000B00009A
(1705284008.200000) can0 124#D104B00482870052
(1705284008.200000) can0 151#D78724FAA8C00053
(1705284008.220000) can0 180#DC057D000B00009B
(1705284008.240000) can0 180#DC057D000B00009C
(1705284008.260000) can0 180#DC057D000B00009D
(1705284008.280000) can0 180#DC057D000B00009E
(1705284008.300000) can0 180#DC057D000B00009F
(1705284008.300000) can0 124#E004B00482870053
(1705284008.300000) can0 151#D28724FAA8C00054
(1705284008.320000) can0 180#DC057D000B0000A0
(1705284008.340000) can0 180#DC057D000B0000A1
(1705284008.360000) can0 180#DC057D000B0000A2
(1705284008.380000) can0 180#DC057D000B0000A3
(1705284008.400000) can0 180#DC057D000B0000A4
(1705284008.400000) can0 124#EF04B00482870054
(1705284008.400000) can0 151#CD8724FAA7C00055
(1705284008.420000) can0 180#DC057D000B0000A5
(1705284008.440000) can0 180#DC057D000B0000A6
(1705284008.460000) can0 180#DC057D000B0000A7
(1705284008.480000) can0 180#DC057D000B0000A8
(1705284008.500000) can0 180#DC057D000B0000A9
(1705284008.500000) can0 124#FE04B00482870055
(1705284008.500000) can0 151#C88724FAA7C0000A
(1705284008.500000) can0 152#823E600000000000
(1705284008.520000) can0 180#DC057D000B0000AA
(1705284008.540000) can0 180#DC057D000B0000AB
(1705284008.560000) can0 180#DC057D000B0000AC
(1705284008.580000) can0 180#DC057D000B0000AD
(1705284008.600000) can0 180#DC057D000B0000AE
(1705284008.600000) can0 124#0D05B00482870056
(1705284008.600000) can0 151#C38724FAA7C0000B
(1705284008.620000) can0 180#DC057D000B0000AF
(1705284008.640000) can0 180#DC057D000B0000B0
(1705284008.660000) can0 180#DC057D000B0000B1
(1705284008.680000) can0 180#DC057D000B0000B2
(1705284008.700000) can0 180#DC057D000B0000B3
(1705284008.700000) can0 124#1C05B00482870057
(1705284008.700000) can0 151#BE8724FAA7C0000C
(1705284008.720000) can0 180#DC057D000B0000B4
(1705284008.740000) can0 180#DC057D000B0000B5
(1705284008.760000) can0 180#DC057D000B0000B6
(1705284008.780000) can0 180#DC057D000B0000B7
(1705284008.800000) can0 180#DC057D000B0000B8
(1705284008.800000) can0 124#2B05B00482870058
(1705284008.800000) can0 151#B98724FAA7C0000D
(1705284008.820000) can0 180#DC057D000B0000B9
(1705284008.840000) can0 180#DC057D000B0000BA
(1705284008.860000) can0 180#DC057D000B0000BB
(1705284008.880000) can0 180#DC057D000B0000BC
(1705284008.900000) can0 180#DC057D000B0000BD
(1705284008.900000) can0 124#3A05B00482870059
(1705284008.900000) can0 151#B48724FAA7C0000E
(1705284008.920000) can0 180#DC057D000B0000BE
(1705284008.940000) can0 180#DC057D000B0000BF
(1705284008.960000) can0 180#DC057D000B0000C0
(1705284008.980000) can0 180#DC057D000B0000C1
(1705284009.000000) can0 180#DC057D000B0000C2
(1705284009.000000) can0 124#4905B0048287005A
(1705284009.000000) can0 123#0711000000000000
(1705284009.000000) can0 151#AF8724FAA7C0000F
(1705284009.000000) can0 150#0902000000000000
(1705284009.000000) can0 152#823E600000000000
(1705284009.020000) can0 180#DC057D000B0000C3
(1705284009.040000) can0 180#DC057D000B0000C4
(1705284009.060000) can0 180#DC057D000B0000C5
(1705284009.080000) can0 180#DC057D000B0000C6
(1705284009.100000) can0 180#DC057D000B0000C7
(1705284009.100000) can0 124#5805B0048287005B
(1705284009.100000) can0 151#AA8724FAA7C00010
(1705284009.120000) can0 180#DC057D000B0000C8
(1705284009.140000) can0 180#DC057D000B0000C9
(1705284009.160000) can0 180#DC057D000B0000CA
(1705284009.180000) can0 180#DC057D000B0000CB
(1705284009.200000) can0 180#DC057D000B0000CC
(1705284009.200000) can0 124#6705B0048287005C
(1705284009.200000) can0 151#A58724FAA7C00011
(1705284009.220000) can0 180#DC057D000B0000CD
(1705284009.240000) can0 180#DC057D000B0000CE
(1705284009.260000) can0 180#DC057D000B0000CF
(1705284009.280000) can0 180#DC057D000B0000D0
(1705284009.300000) can0 180#DC057D000B0000D1
(1705284009.300000) can0 124#7605B0048287005D
(1705284009.300000) can0 151#A08724FAA7C00012
(1705284009.320000) can0 180#DC057D000B0000D2
(1705284009.340000) can0 180#DC057D000B0000D3
(1705284009.360000) can0 180#DC057D000B0000D4
(1705284009.380000) can0 180#DC057D000B0000D5
(1705284009.400000) can0 180#DC057D000B0000D6
(1705284009.400000) can0 124#8505B0048287005E
(1705284009.400000) can0 151#9B8724FAA7C00013
(1705284009.420000) can0 180#DC057D000B0000D7
(1705284009.440000) can0 180#DC057D000B0000D8
(1705284009.460000) can0 180#DC057D000B0000D9
(1705284009.480000) can0 180#DC057D000B0000DA
(1705284009.500000) can0 180#DC057D000B0000DB
(1705284009.500000) can0 124#9405B0048287005F
(1705284009.500000) can0 151#968724FAA7C00014
(1705284009.500000) can0 152#823E600000000000
(1705284009.520000) can0 180#DC057D000B0000DC
(1705284009.540000) can0 180#DC057D000B0000DD
(1705284009.560000) can0 180#DC057D000B0000DE
(1705284009.580000) can0 180#DC057D000B0000DF
(1705284009.600000) can0 180#DC057D000B0000E0
(1705284009.600000) can0 124#A305B00482870060
(1705284009.600000) can0 151#918724FAA7C00015
(1705284009.620000) can0 180#DC057D000B0000E1
(1705284009.640000) can0 180#DC057D000B0000E2
(1705284009.660000) can0 180#DC057D000B0000E3
(1705284009.680000) can0 180#DC057D000B0000E4
(1705284009.700000) can0 180#DC057D000B0000E5
(1705284009.700000) can0 124#B205B00482870061
(1705284009.700000) can0 151#8C8724FAA7C00016
(1705284009.720000) can0 180#DC057D000B0000E6
(1705284009.740000) can0 180#DC057D000B0000E7
(1705284009.760000) can0 180#DC057D000B0000E8
(1705284009.780000) can0 180#DC057D000B0000E9
(1705284009.800000) can0 180#DC057D000B0000EA
(1705284009.800000) can0 124#C105B00482870062
(1705284009.800000) can0 151#878724FAA7C00017
(1705284009.820000) can0 180#DC057D000B0000EB
(1705284009.840000) can0 180#DC057D000B0000EC
(1705284009.860000) can0 180#DC057D000B0000ED
(1705284009.880000) can0 180#DC057D000B0000EE
(1705284009.900000) can0 180#DC057D000B0000EF
(1705284009.900000) can0 124#D005B00482870063
(1705284009.900000) can0 151#828724FAA7C00018
(1705284009.920000) can0 180#DC057D000B0000F0
(1705284009.940000) can0 180#DC057D000B0000F1
(1705284009.960000) can0 180#DC057D000B0000F2
(1705284009.980000) can0 180#DC057D000B0000F3
(1705334395.000000) can0 180#000000000B0000F4
(1705334395.000000) can0 124#C409200373780064
(1705334395.000000) can0 123#0811000000000000
(1705334395.000000) can0 151#327D18FC97C00018
(1705334395.000000) can0 150#0A02000000000000
(1705334395.000000) can0 152#5F585C0000000000
(1705334395.200000) can0 180#000000000B0000F5
(1705334395.400000) can0 180#000000000B0000F6
(1705334395.600000) can0 180#000000000B0000F7
(1705334395.800000) can0 180#000000000B0000F8
(1705334396.000000) can0 180#000000000B0000F9
(1705334396.000000) can0 124#C409200373780065
(1705334396.000000) can0 151#327D18FC97C00019
(1705334396.200000) can0 180#000000000B0000FA
(1705334396.400000) can0 180#000000000B0000FB
(1705334396.600000) can0 180#000000000B0000FC
(1705334396.800000) can0 180#000000000B0000FD
(1705334397.000000) can0 180#000000000B0000FE
(1705334397.000000) can0 124#C409200373780066
(1705334397.000000) can0 151#327D18FC97C0001A
(1705334397.200000) can0 180#000000000B0000FF
(1705334397.400000) can0 180#000000000B000000
(1705334397.600000) can0 180#000000000B000001
(1705334397.800000) can0 180#000000000B000002
(1705334398.000000) can0 180#000000000B000003
(1705334398.000000) can0 124#C409200373780067
(1705334398.000000) can0 151#327D18FC97C0001B
(1705334398.200000) can0 180#000000000B000004
(1705334398.400000) can0 180#000000000B000005
(1705334398.600000) can0 180#000000000B000006
(1705334398.800000) can0 180#000000000B000007
(1705334399.000000) can0 180#000000000B000008
(1705334399.000000) can0 124#C409200373780068
(1705334399.000000) can0 151#327D18FC97C0001C
(1705334399.200000) can0 180#000000000B000009
(1705334399.400000) can0 180#000000000B00000A
(1705334399.600000) can0 180#000000000B00000B
(1705334399.800000) can0 180#000000000B00000C
(1705334401.000000) can0 180#0000004B0800000D
(1705334401.000000) can0 124#00000000555A0069
(1705334401.000000) can0 151#0C7B000091C0001D
(1705334401.000000) can0 152#554E520000000000
(1705334401.200000) can0 180#0000004B0800000E
(1705334401.400000) can0 180#0000004B0800000F
(1705334401.600000) can0 180#0000004B08000010
(1705334401.800000) can0 180#0000004B08000011
(1705334402.000000) can0 180#0000004B08000012
(1705334402.000000) can0 124#00000000555A006A
(1705334402.000000) can0 151#0C7B000091C0001E
(1705334402.200000) can0 180#0000004B08000013
(1705334402.400000) can0 180#0000004B08000014
(1705334402.600000) can0 180#0000004B08000015
(1705334402.800000) can0 180#0000004B08000016
(1705334403.000000) can0 180#0000004B08000017
(1705334403.000000) can0 124#00000000555A006B
(1705334403.000000) can0 151#0C7B000091C0001F
(1705334403.200000) can0 180#0000004B08000018
(1705334403.400000) can0 180#0000004B08000019
(1705334403.600000) can0 180#0000004B0800001A
(1705334403.800000) can0 180#0000004B0800001B
(1705334404.000000) can0 180#0000004B0800001C
(1705334404.000000) can0 124#00000000555A006C
(1705334404.000000) can0 151#0C7B000091C00020
(1705334404.200000) can0 180#0000004B0800001D
(1705334404.400000) can0 180#0000004B0800001E
(1705334404.600000) can0 180#0000004B0800001F
(1705334404.800000) can0 180#0000004B08000020
(1705334405.000000) can0 180#0000004B08000021
(1705334405.000000) can0 124#00000000555A006D
(1705334405.000000) can0 151#0C7B000091C00021
(1705334405.200000) can0 180#0000004B08000022
(1705334405.400000) can0 180#0000004B08000023
(1705334405.600000) can0 180#0000004B08000024
(1705334405.800000) can0 180#0000004B08000025
